
T0868 000:035 SEGGER J-Link V6.18 Log File (0000ms, 0012ms total)
T0868 000:035 DLL Compiled: Aug  3 2017 16:19:24 (0000ms, 0012ms total)
T0868 000:035 Logging started @ 2017-09-08 15:02 (0000ms, 0012ms total)
T0868 000:035 JLINK_SetWarnOutHandler(...) (0000ms, 0012ms total)
T0868 000:035 JLINK_OpenEx(...)
Firmware: J-Link Ultra Rev.1 compiled Dec  3 2013 14:27:53
Hardware: V1.00
S/N: 281100043
Feature(s): RDI, FlashBP, FlashDL, JFlash, GDB
TELNET listener socket opened on port 19021WEBSRV 
Webserver running on local port 19080  returns O.K. (0006ms, 0018ms total)
T0868 000:041 JLINK_SetErrorOutHandler(...) (0000ms, 0018ms total)
T0868 000:041 JLINK_ExecCommand("ProjectFile = "D:\Repos\PLC_1xx\plc_1xx_L433\MDK-ARM\JLinkSettings.ini"", ...). C:\Program Files (x86)\SEGGER\JLink_V618\JLinkDevices.xml evaluated successfully.  returns 0x00 (0100ms, 0118ms total)
T0868 000:141 JLINK_ExecCommand("Device = STM32L433CCUx", ...). Device "STM32L433CC" selected.  returns 0x00 (0001ms, 0119ms total)
T0868 000:142 JLINK_ExecCommand("DisableConnectionTimeout", ...).   returns 0x01 (0000ms, 0119ms total)
T0868 000:142 JLINK_GetHardwareVersion()  returns 0x2710 (0000ms, 0119ms total)
T0868 000:142 JLINK_GetDLLVersion()  returns 61800 (0000ms, 0119ms total)
T0868 000:142 JLINK_GetFirmwareString(...) (0000ms, 0119ms total)
T0868 000:143 JLINK_GetDLLVersion()  returns 61800 (0000ms, 0119ms total)
T0868 000:143 JLINK_GetCompileDateTime() (0000ms, 0119ms total)
T0868 000:143 JLINK_GetFirmwareString(...) (0000ms, 0119ms total)
T0868 000:143 JLINK_GetHardwareVersion()  returns 0x2710 (0000ms, 0119ms total)
T0868 000:143 JLINK_TIF_Select(JLINKARM_TIF_SWD)  returns 0x00 (0001ms, 0120ms total)
T0868 000:144 JLINK_SetSpeed(20000) (0000ms, 0120ms total)
T0868 000:144 JLINK_GetId() >0x10B TIF>Found SW-DP with ID 0x2BA01477 >0x0D TIF> >0x28 TIF> >0x0D TIF> >0x28 TIF> >0x0D TIF> >0x28 TIF> >0x0D TIF> >0x28 TIF> >0x0D TIF> >0x21 TIF> >0x0D TIF> >0x28 TIF> >0x0D TIF> >0x28 TIF> >0x0D TIF> >0x28 TIF> >0x0D TIF> >0x0D TIF> >0x21 TIF> >0x0D TIF> >0x21 TIF> >0x0D TIF> >0x28 TIF> >0x0D TIF> >0x0D TIF> >0x21 TIF> >0x0D TIF> >0x21 TIF> >0x0D TIF> >0x28 TIF> >0x0D TIF> >0x0D TIF> >0x21 TIF> >0x0D TIF> >0x21 TIF> >0x0D TIF> >0x28 TIF> >0x0D TIF> >0x0D TIF> >0x21 TIF>
 >0x0D TIF> >0x21 TIF> >0x0D TIF> >0x28 TIF> >0x0D TIF> >0x0D TIF> >0x21 TIF> >0x0D TIF> >0x21 TIF> >0x0D TIF> >0x28 TIF> >0x0D TIF> >0x0D TIF> >0x21 TIF> >0x0D TIF> >0x21 TIF> >0x0D TIF> >0x28 TIF> >0x0D TIF> >0x0D TIF> >0x21 TIF> >0x0D TIF> >0x21 TIF> >0x0D TIF> >0x28 TIF> >0x0D TIF> >0x0D TIF> >0x21 TIF> >0x0D TIF> >0x21 TIF> >0x0D TIF> >0x28 TIF> >0x0D TIF> >0x0D TIF> >0x21 TIF> >0x0D TIF> >0x21 TIF> >0x0D TIF> >0x28 TIF> >0x0D TIF> >0x0D TIF> >0x21 TIF> >0x0D TIF> >0x21 TIF> >0x0D TIF> >0x28 TIF>
 >0x0D TIF> >0x0D TIF> >0x21 TIF> >0x0D TIF> >0x21 TIF> >0x10B TIF>Found SW-DP with ID 0x2BA01477 >0x0D TIF> >0x28 TIF> >0x0D TIF> >0x28 TIF> >0x0D TIF> >0x28 TIF> >0x0D TIF> >0x28 TIF> >0x0D TIF> >0x21 TIF> >0x0D TIF> >0x28 TIF>Scanning AP map to find all available APs >0x0D TIF> >0x28 TIF> >0x0D TIF> >0x21 TIF> >0x0D TIF> >0x21 TIF> >0x0D TIF> >0x28 TIF> >0x0D TIF> >0x21 TIF> >0x0D TIF> >0x21 TIF>AP[1]: Stopped AP scan as end of AP map has been reachedAP[0]: AHB-AP (IDR: 0x24770011)
Iterating through AP map to find AHB-AP to use >0x42 TIF> >0x28 TIF> >0x0D TIF> >0x21 TIF> >0x0D TIF> >0x21 TIF> >0x42 TIF> >0x28 TIF> >0x0D TIF> >0x28 TIF> >0x0D TIF> >0x28 TIF> >0x0D TIF> >0x0D TIF> >0x21 TIF> >0x0D TIF> >0x21 TIF>AP[0]: Core foundAP[0]: AHB-AP ROM base: 0xE00FF000 >0x0D TIF> >0x28 TIF> >0x0D TIF> >0x28 TIF> >0x0D TIF> >0x28 TIF> >0x0D TIF> >0x0D TIF> >0x21 TIF> >0x0D TIF> >0x21 TIF>CPUID register: 0x410FC241. Implementer code: 0x41 (ARM)Found Cortex-M4 r0p1, Little endian.
 -- CPU_ReadMem(4 bytes @ 0xE000EDF0) -- CPU_WriteMem(4 bytes @ 0xE000EDF0) -- CPU_ReadMem(4 bytes @ 0xE0002000)FPUnit: 6 code (BP) slots and 2 literal slots -- CPU_ReadMem(4 bytes @ 0xE000EDFC) -- CPU_WriteMem(4 bytes @ 0xE000EDFC) -- CPU_ReadMem(4 bytes @ 0xE0001000) -- CPU_WriteMem(4 bytes @ 0xE0001000) -- CPU_ReadMem(4 bytes @ 0xE000ED88) -- CPU_WriteMem(4 bytes @ 0xE000ED88) -- CPU_ReadMem(4 bytes @ 0xE000ED88) -- CPU_WriteMem(4 bytes @ 0xE000ED88)CoreSight components:ROMTbl[0] @ E00FF000
 -- CPU_ReadMem(16 bytes @ 0xE00FF000) -- CPU_ReadMem(16 bytes @ 0xE000EFF0) -- CPU_ReadMem(16 bytes @ 0xE000EFE0)ROMTbl[0][0]: E000E000, CID: B105E00D, PID: 000BB00C SCS -- CPU_ReadMem(16 bytes @ 0xE0001FF0) -- CPU_ReadMem(16 bytes @ 0xE0001FE0)ROMTbl[0][1]: E0001000, CID: B105E00D, PID: 003BB002 DWT -- CPU_ReadMem(16 bytes @ 0xE0002FF0) -- CPU_ReadMem(16 bytes @ 0xE0002FE0)ROMTbl[0][2]: E0002000, CID: B105E00D, PID: 002BB003 FPB -- CPU_ReadMem(16 bytes @ 0xE0000FF0)
 -- CPU_ReadMem(16 bytes @ 0xE0000FE0)ROMTbl[0][3]: E0000000, CID: B105E00D, PID: 003BB001 ITM -- CPU_ReadMem(16 bytes @ 0xE00FF010) -- CPU_ReadMem(16 bytes @ 0xE0040FF0) -- CPU_ReadMem(16 bytes @ 0xE0040FE0)ROMTbl[0][4]: E0040000, CID: B105900D, PID: 000BB9A1 TPIU -- CPU_ReadMem(16 bytes @ 0xE0041FF0) -- CPU_ReadMem(16 bytes @ 0xE0041FE0)ROMTbl[0][5]: E0041000, CID: B105900D, PID: 000BB925 ETM >0x0D TIF> >0x21 TIF>  returns 0x2BA01477 (0157ms, 0277ms total)
T0868 000:301 JLINK_GetDLLVersion()  returns 61800 (0000ms, 0277ms total)
T0868 000:301 JLINK_CORE_GetFound()  returns 0xE0000FF (0000ms, 0277ms total)
T0868 000:301 JLINK_GetDebugInfo(0x100 = JLINKARM_ROM_TABLE_ADDR_INDEX) -- Value=0xE00FF000  returns 0x00 (0000ms, 0277ms total)
T0868 000:301 JLINK_ReadMem (0xE00FF000, 0x0020 Bytes, ...) -- CPU_ReadMem(32 bytes @ 0xE00FF000) - Data: 03 F0 F0 FF 03 20 F0 FF 03 30 F0 FF 03 10 F0 FF ...  returns 0x00 (0001ms, 0278ms total)
T0868 000:302 JLINK_ReadMem (0xE000EFF0, 0x0010 Bytes, ...) -- CPU_ReadMem(16 bytes @ 0xE000EFF0) - Data: 0D 00 00 00 E0 00 00 00 05 00 00 00 B1 00 00 00  returns 0x00 (0000ms, 0278ms total)
T0868 000:302 JLINK_ReadMem (0xE000EFD0, 0x0020 Bytes, ...) -- CPU_ReadMem(32 bytes @ 0xE000EFD0) - Data: 04 00 00 00 00 00 00 00 00 00 00 00 00 00 00 00 ...  returns 0x00 (0001ms, 0279ms total)
T0868 000:303 JLINK_ReadMem (0xE0001FF0, 0x0010 Bytes, ...) -- CPU_ReadMem(16 bytes @ 0xE0001FF0) - Data: 0D 00 00 00 E0 00 00 00 05 00 00 00 B1 00 00 00  returns 0x00 (0001ms, 0280ms total)
T0868 000:304 JLINK_ReadMem (0xE0001FD0, 0x0020 Bytes, ...) -- CPU_ReadMem(32 bytes @ 0xE0001FD0) - Data: 04 00 00 00 00 00 00 00 00 00 00 00 00 00 00 00 ...  returns 0x00 (0000ms, 0280ms total)
T0868 000:304 JLINK_ReadMem (0xE0002FF0, 0x0010 Bytes, ...) -- CPU_ReadMem(16 bytes @ 0xE0002FF0) - Data: 0D 00 00 00 E0 00 00 00 05 00 00 00 B1 00 00 00  returns 0x00 (0001ms, 0281ms total)
T0868 000:305 JLINK_ReadMem (0xE0002FD0, 0x0020 Bytes, ...) -- CPU_ReadMem(32 bytes @ 0xE0002FD0) - Data: 04 00 00 00 00 00 00 00 00 00 00 00 00 00 00 00 ...  returns 0x00 (0001ms, 0282ms total)
T0868 000:306 JLINK_ReadMem (0xE0000FF0, 0x0010 Bytes, ...) -- CPU_ReadMem(16 bytes @ 0xE0000FF0) - Data: 0D 00 00 00 E0 00 00 00 05 00 00 00 B1 00 00 00  returns 0x00 (0000ms, 0282ms total)
T0868 000:306 JLINK_ReadMem (0xE0000FD0, 0x0020 Bytes, ...) -- CPU_ReadMem(32 bytes @ 0xE0000FD0) - Data: 04 00 00 00 00 00 00 00 00 00 00 00 00 00 00 00 ...  returns 0x00 (0001ms, 0283ms total)
T0868 000:307 JLINK_ReadMem (0xE0040FF0, 0x0010 Bytes, ...) -- CPU_ReadMem(16 bytes @ 0xE0040FF0) - Data: 0D 00 00 00 90 00 00 00 05 00 00 00 B1 00 00 00  returns 0x00 (0001ms, 0284ms total)
T0868 000:308 JLINK_ReadMem (0xE0040FD0, 0x0020 Bytes, ...) -- CPU_ReadMem(32 bytes @ 0xE0040FD0) - Data: 04 00 00 00 00 00 00 00 00 00 00 00 00 00 00 00 ...  returns 0x00 (0000ms, 0284ms total)
T0868 000:308 JLINK_ReadMem (0xE0041FF0, 0x0010 Bytes, ...) -- CPU_ReadMem(16 bytes @ 0xE0041FF0) - Data: 0D 00 00 00 90 00 00 00 05 00 00 00 B1 00 00 00  returns 0x00 (0001ms, 0285ms total)
T0868 000:309 JLINK_ReadMem (0xE0041FD0, 0x0020 Bytes, ...) -- CPU_ReadMem(32 bytes @ 0xE0041FD0) - Data: 04 00 00 00 00 00 00 00 00 00 00 00 00 00 00 00 ...  returns 0x00 (0001ms, 0286ms total)
T0868 000:310 JLINK_ReadMemU32(0xE000EF40, 0x0001 Items, ...) -- CPU_ReadMem(4 bytes @ 0xE000EF40) - Data: 21 00 11 10  returns 0x01 (0000ms, 0286ms total)
T0868 000:310 JLINK_ReadMemU32(0xE000EF44, 0x0001 Items, ...) -- CPU_ReadMem(4 bytes @ 0xE000EF44) - Data: 11 00 00 11  returns 0x01 (0001ms, 0287ms total)
T0868 000:311 JLINK_ReadMemU32(0xE000ED00, 0x0001 Items, ...) -- CPU_ReadMem(4 bytes @ 0xE000ED00) - Data: 41 C2 0F 41  returns 0x01 (0001ms, 0288ms total)
T0868 000:312 JLINK_SetResetType(JLINKARM_CM3_RESET_TYPE_NORMAL)  returns JLINKARM_CM3_RESET_TYPE_NORMAL (0000ms, 0288ms total)
T0868 000:312 JLINK_Reset() -- CPU is running -- CPU_WriteMem(4 bytes @ 0xE000EDF0) -- CPU is running -- CPU_WriteMem(4 bytes @ 0xE000EDFC)Reset: Halt core after reset via DEMCR.VC_CORERESET. >0x35 TIF>Reset: Reset device via AIRCR.SYSRESETREQ. -- CPU is running -- CPU_WriteMem(4 bytes @ 0xE000ED0C) >0x0D TIF> >0x28 TIF> -- CPU_ReadMem(4 bytes @ 0xE000EDF0) -- CPU_ReadMem(4 bytes @ 0xE000EDF0) -- CPU is running -- CPU_WriteMem(4 bytes @ 0xE000EDF0) -- CPU is running -- CPU_WriteMem(4 bytes @ 0xE000EDFC)
 -- CPU_ReadMem(4 bytes @ 0xE000EDF0) -- CPU_WriteMem(4 bytes @ 0xE0002000) -- CPU_ReadMem(4 bytes @ 0xE000EDFC) -- CPU_ReadMem(4 bytes @ 0xE0001000) (0067ms, 0355ms total)
T0868 000:379 JLINK_ReadReg(R15 (PC))  returns 0x0800025C (0000ms, 0355ms total)
T0868 000:379 JLINK_ReadReg(XPSR)  returns 0x01000000 (0000ms, 0355ms total)
T0868 000:379 JLINK_Halt()  returns 0x00 (0000ms, 0355ms total)
T0868 000:379 JLINK_IsHalted()  returns TRUE (0000ms, 0355ms total)
T0868 000:379 JLINK_ReadMemU32(0xE000EDF0, 0x0001 Items, ...) -- CPU_ReadMem(4 bytes @ 0xE000EDF0) - Data: 03 00 03 00  returns 0x01 (0000ms, 0355ms total)
T0868 000:379 JLINK_WriteU32(0xE000EDF0, 0xA05F0003) -- CPU_WriteMem(4 bytes @ 0xE000EDF0)  returns 0x00 (0001ms, 0356ms total)
T0868 000:380 JLINK_WriteU32(0xE000EDFC, 0x01000000) -- CPU_WriteMem(4 bytes @ 0xE000EDFC)  returns 0x00 (0001ms, 0357ms total)
T0868 000:381 JLINK_GetHWStatus(...)  returns 0x00 (0001ms, 0358ms total)
T0868 000:382 JLINK_GetNumBPUnits(Type = 0xFFFFFF00)  returns 0x06 (0000ms, 0358ms total)
T0868 000:382 JLINK_GetNumBPUnits(Type = 0xF0)  returns 0x2000 (0000ms, 0358ms total)
T0868 000:382 JLINK_GetNumWPUnits()  returns 0x04 (0000ms, 0358ms total)
T0868 000:382 JLINK_GetSpeed()  returns 0x411B (0000ms, 0358ms total)
T0868 000:383 JLINK_ReadMemU32(0xE000E004, 0x0001 Items, ...) -- CPU_ReadMem(4 bytes @ 0xE000E004) - Data: 02 00 00 00  returns 0x01 (0000ms, 0358ms total)
T0868 000:383 JLINK_ReadMemU32(0xE000E004, 0x0001 Items, ...) -- CPU_ReadMem(4 bytes @ 0xE000E004) - Data: 02 00 00 00  returns 0x01 (0001ms, 0359ms total)
T0868 000:384 JLINK_WriteMem(0xE0001000, 0x001C Bytes, ...) - Data: 01 00 00 00 00 00 00 00 00 00 00 00 00 00 00 00 ... -- CPU_WriteMem(28 bytes @ 0xE0001000)  returns 0x1C (0001ms, 0360ms total)
T0868 000:385 JLINK_ReadMem (0xE0001000, 0x001C Bytes, ...) -- CPU_ReadMem(28 bytes @ 0xE0001000) - Data: 01 00 00 40 00 00 00 00 00 00 00 00 00 00 00 00 ...  returns 0x00 (0001ms, 0361ms total)
T0868 000:386 JLINK_ReadReg(R15 (PC))  returns 0x0800025C (0000ms, 0361ms total)
T0868 000:386 JLINK_ReadReg(XPSR)  returns 0x01000000 (0000ms, 0361ms total)
T0868 000:524 JLINK_SetResetType(JLINKARM_CM3_RESET_TYPE_NORMAL)  returns JLINKARM_CM3_RESET_TYPE_NORMAL (0000ms, 0361ms total)
T0868 000:524 JLINK_Reset() -- CPU_WriteMem(4 bytes @ 0xE000EDF0) -- CPU_WriteMem(4 bytes @ 0xE000EDFC)Reset: Halt core after reset via DEMCR.VC_CORERESET. >0x35 TIF>Reset: Reset device via AIRCR.SYSRESETREQ. -- CPU_WriteMem(4 bytes @ 0xE000ED0C) >0x0D TIF> >0x28 TIF> -- CPU_ReadMem(4 bytes @ 0xE000EDF0) -- CPU_ReadMem(4 bytes @ 0xE000EDF0) -- CPU_WriteMem(4 bytes @ 0xE000EDF0) -- CPU_WriteMem(4 bytes @ 0xE000EDFC) -- CPU_ReadMem(4 bytes @ 0xE000EDF0) -- CPU_WriteMem(4 bytes @ 0xE0002000)
 -- CPU_ReadMem(4 bytes @ 0xE000EDFC) -- CPU_ReadMem(4 bytes @ 0xE0001000) (0067ms, 0428ms total)
T0868 000:591 JLINK_ReadReg(R15 (PC))  returns 0x0800025C (0000ms, 0428ms total)
T0868 000:591 JLINK_ReadReg(XPSR)  returns 0x01000000 (0000ms, 0428ms total)
T0868 000:591 JLINK_ReadMem (0x0800018C, 0x003C Bytes, ...) -- CPU_ReadMem(128 bytes @ 0x08000180) -- Updating C cache (128 bytes @ 0x08000180) -- Read from C cache (60 bytes @ 0x0800018C) - Data: DF F8 0C D0 00 F0 A2 FB 00 48 00 47 65 71 00 08 ...  returns 0x00 (0002ms, 0430ms total)
T0868 000:593 JLINK_ReadMem (0x080001C8, 0x003C Bytes, ...) -- CPU_ReadMem(64 bytes @ 0x08000200) -- Updating C cache (64 bytes @ 0x08000200) -- Read from C cache (60 bytes @ 0x080001C8) - Data: 08 88 62 B6 61 B6 BF F3 4F 8F BF F3 6F 8F 00 DF ...  returns 0x00 (0001ms, 0431ms total)
T0868 000:594 JLINK_ReadMem (0x08000204, 0x003C Bytes, ...) -- Read from C cache (60 bytes @ 0x08000204) - Data: 08 BF 20 ED 10 8A 20 E9 F0 4F 10 60 08 B4 4F F0 ...  returns 0x00 (0000ms, 0431ms total)
T0868 000:594 JLINK_ReadMem (0x08000240, 0x003C Bytes, ...) -- CPU_ReadMem(64 bytes @ 0x08000240) -- Updating C cache (64 bytes @ 0x08000240) -- Read from C cache (60 bytes @ 0x08000240) - Data: 10 8A 80 F3 09 88 BF F3 6F 8F 70 47 00 BF 00 BF ...  returns 0x00 (0001ms, 0432ms total)
T0868 000:704 JLINK_ReadMem (0x40007400, 0x0004 Bytes, ...) -- CPU_ReadMem(4 bytes @ 0x40007400) - Data: 00 00 00 00  returns 0x00 (0000ms, 0432ms total)
T0868 000:704 JLINK_ReadMem (0x40007408, 0x0044 Bytes, ...) -- CPU_ReadMem(68 bytes @ 0x40007408) - Data: 00 00 00 00 00 00 00 00 00 00 00 00 00 00 00 00 ...  returns 0x00 (0001ms, 0433ms total)
T0868 000:705 JLINK_ReadMem (0x4000744C, 0x0004 Bytes, ...) -- CPU_ReadMem(4 bytes @ 0x4000744C) - Data: 01 00 01 00  returns 0x00 (0001ms, 0434ms total)
T0868 000:719 JLINK_ReadMem (0x40022000, 0x0004 Bytes, ...) -- CPU_ReadMem(4 bytes @ 0x40022000) - Data: 00 06 00 00  returns 0x00 (0001ms, 0435ms total)
T0868 000:720 JLINK_ReadMem (0x40022010, 0x0008 Bytes, ...) -- CPU_ReadMem(8 bytes @ 0x40022010) - Data: 00 00 00 00 00 00 00 C0  returns 0x00 (0001ms, 0436ms total)
T0868 000:721 JLINK_ReadMem (0x40022018, 0x0004 Bytes, ...) -- CPU_ReadMem(4 bytes @ 0x40022018) - Data: 00 00 00 00  returns 0x00 (0000ms, 0436ms total)
T0868 000:721 JLINK_ReadMem (0x40022020, 0x0010 Bytes, ...) -- CPU_ReadMem(16 bytes @ 0x40022020) - Data: AA F8 FF FF FF FF FF FF 00 00 FF FF FF FF 00 FF  returns 0x00 (0001ms, 0437ms total)
T0868 000:722 JLINK_ReadMem (0x40022030, 0x0004 Bytes, ...) -- CPU_ReadMem(4 bytes @ 0x40022030) - Data: FF FF 00 FF  returns 0x00 (0001ms, 0438ms total)
T0868 000:723 JLINK_ReadMem (0x40022044, 0x000C Bytes, ...) -- CPU_ReadMem(12 bytes @ 0x40022044) - Data: FF FF FF FF FF FF FF FF FF FF 00 FF  returns 0x00 (0000ms, 0438ms total)
T0868 000:723 JLINK_ReadMem (0x40022050, 0x0004 Bytes, ...) -- CPU_ReadMem(4 bytes @ 0x40022050) - Data: FF FF 00 FF  returns 0x00 (0001ms, 0439ms total)
T0868 001:504 JLINK_ReadMem (0x20000138, 0x0008 Bytes, ...) -- CPU_ReadMem(64 bytes @ 0x20000100) -- Updating C cache (64 bytes @ 0x20000100) -- Read from C cache (8 bytes @ 0x20000138) - Data: FA 37 27 61 4F F0 01 0E  returns 0x00 (0001ms, 0440ms total)
T0868 001:513 JLINK_ReadMem (0x20000204, 0x0004 Bytes, ...) -- CPU_ReadMem(64 bytes @ 0x20000200) -- Updating C cache (64 bytes @ 0x20000200) -- Read from C cache (4 bytes @ 0x20000204) - Data: 3E 3E 3E 3E  returns 0x00 (0001ms, 0441ms total)
T0868 001:522 JLINK_ReadMem (0x20000068, 0x0008 Bytes, ...) -- CPU_ReadMem(64 bytes @ 0x20000040) -- Updating C cache (64 bytes @ 0x20000040) -- Read from C cache (8 bytes @ 0x20000068) - Data: 41 69 41 F0 00 41 41 61  returns 0x00 (0001ms, 0442ms total)
T0868 001:530 JLINK_ReadMem (0x20000078, 0x0004 Bytes, ...) -- Read from C cache (4 bytes @ 0x20000078) - Data: 10 B5 4A F6  returns 0x00 (0000ms, 0442ms total)
T0868 001:537 JLINK_ReadMem (0x2000015E, 0x0001 Bytes, ...) -- CPU_ReadMem(64 bytes @ 0x20000140) -- Updating C cache (64 bytes @ 0x20000140) -- Read from C cache (1 bytes @ 0x2000015E) - Data: 14  returns 0x00 (0000ms, 0442ms total)
T0868 001:544 JLINK_ReadMem (0x20000100, 0x0004 Bytes, ...) -- Read from C cache (4 bytes @ 0x20000100) - Data: 48 61 00 E0  returns 0x00 (0000ms, 0442ms total)
T0868 001:547 JLINK_ReadMem (0x20000108, 0x0004 Bytes, ...) -- Read from C cache (4 bytes @ 0x20000108) - Data: C0 03 FB D4  returns 0x00 (0000ms, 0442ms total)
T0868 001:548 JLINK_ReadMem (0x20000110, 0x0004 Bytes, ...) -- Read from C cache (4 bytes @ 0x20000110) - Data: 08 69 20 40  returns 0x00 (0001ms, 0443ms total)
T0868 001:550 JLINK_ReadMem (0x20000104, 0x0004 Bytes, ...) -- Read from C cache (4 bytes @ 0x20000104) - Data: 13 60 08 69  returns 0x00 (0000ms, 0443ms total)
T0868 001:552 JLINK_ReadMem (0x2000010C, 0x0004 Bytes, ...) -- Read from C cache (4 bytes @ 0x2000010C) - Data: 00 20 48 61  returns 0x00 (0000ms, 0443ms total)
T0868 001:553 JLINK_ReadMem (0x20000114, 0x0004 Bytes, ...) -- Read from C cache (4 bytes @ 0x20000114) - Data: 01 D0 0C 61  returns 0x00 (0000ms, 0443ms total)
T0868 001:566 JLINK_ReadMem (0x200000F8, 0x0004 Bytes, ...) -- CPU_ReadMem(64 bytes @ 0x200000C0) -- Updating C cache (64 bytes @ 0x200000C0) -- Read from C cache (4 bytes @ 0x200000F8) - Data: 48 61 48 69  returns 0x00 (0001ms, 0444ms total)
T0868 001:582 JLINK_ReadMem (0x08032000, 0x0400 Bytes, ...) -- CPU_ReadMem(1024 bytes @ 0x08032000) -- Updating C cache (1024 bytes @ 0x08032000) -- Read from C cache (1024 bytes @ 0x08032000) - Data: FF FF FF FF FF FF FF FF FF FF FF FF FF FF FF FF ...  returns 0x00 (0006ms, 0450ms total)
T0868 001:588 JLINK_ReadMem (0x08032400, 0x01DC Bytes, ...) -- CPU_ReadMem(512 bytes @ 0x08032400) -- Updating C cache (512 bytes @ 0x08032400) -- Read from C cache (476 bytes @ 0x08032400) - Data: FF FF FF FF FF FF FF FF FF FF FF FF FF FF FF FF ...  returns 0x00 (0004ms, 0454ms total)
T0888 001:609 JLINK_SetBPEx(Addr = 0x08007164, Type = 0xFFFFFFF2)  returns 0x00000001 (0000ms, 0454ms total)
T0888 001:609 JLINK_Go() -- CPU_WriteMem(4 bytes @ 0xE0002000) -- CPU_ReadMem(4 bytes @ 0xE0001000) -- CPU_WriteMem(4 bytes @ 0xE0002008) -- CPU_WriteMem(4 bytes @ 0xE000200C) -- CPU_WriteMem(4 bytes @ 0xE0002010) -- CPU_WriteMem(4 bytes @ 0xE0002014) -- CPU_WriteMem(4 bytes @ 0xE0002018) -- CPU_WriteMem(4 bytes @ 0xE000201C) -- CPU_WriteMem(4 bytes @ 0xE0001004) (0004ms, 0458ms total)
T0888 001:713 JLINK_IsHalted()  returns TRUE (0002ms, 0460ms total)
T0888 001:715 JLINK_Halt()  returns 0x00 (0000ms, 0458ms total)
T0888 001:715 JLINK_IsHalted()  returns TRUE (0000ms, 0458ms total)
T0888 001:715 JLINK_IsHalted()  returns TRUE (0000ms, 0458ms total)
T0888 001:715 JLINK_IsHalted()  returns TRUE (0000ms, 0458ms total)
T0888 001:715 JLINK_ReadReg(R15 (PC))  returns 0x08007164 (0000ms, 0458ms total)
T0888 001:715 JLINK_ReadReg(XPSR)  returns 0x61000000 (0000ms, 0458ms total)
T0888 001:715 JLINK_ClrBPEx(BPHandle = 0x00000001)  returns 0x00 (0000ms, 0458ms total)
T0888 001:716 JLINK_ReadMemU32(0xE000ED30, 0x0001 Items, ...) -- CPU_ReadMem(4 bytes @ 0xE000ED30) - Data: 03 00 00 00  returns 0x01 (0000ms, 0458ms total)
T0888 001:716 JLINK_ReadMemU32(0xE0001028, 0x0001 Items, ...) -- CPU_ReadMem(4 bytes @ 0xE0001028) - Data: 00 00 00 00  returns 0x01 (0001ms, 0459ms total)
T0888 001:717 JLINK_ReadMemU32(0xE0001038, 0x0001 Items, ...) -- CPU_ReadMem(4 bytes @ 0xE0001038) - Data: 00 02 00 00  returns 0x01 (0000ms, 0459ms total)
T0888 001:717 JLINK_ReadMemU32(0xE0001048, 0x0001 Items, ...) -- CPU_ReadMem(4 bytes @ 0xE0001048) - Data: 00 00 00 00  returns 0x01 (0001ms, 0460ms total)
T0888 001:718 JLINK_ReadMemU32(0xE0001058, 0x0001 Items, ...) -- CPU_ReadMem(4 bytes @ 0xE0001058) - Data: 00 00 00 00  returns 0x01 (0001ms, 0461ms total)
T0888 001:719 JLINK_ReadReg(R0)  returns 0x08007165 (0000ms, 0461ms total)
T0888 001:719 JLINK_ReadReg(R1)  returns 0x2000EC68 (0000ms, 0461ms total)
T0888 001:719 JLINK_ReadReg(R2)  returns 0x00000000 (0000ms, 0461ms total)
T0888 001:719 JLINK_ReadReg(R3)  returns 0x080064E9 (0000ms, 0461ms total)
T0888 001:719 JLINK_ReadReg(R4)  returns 0x0800BAE4 (0000ms, 0461ms total)
T0888 001:719 JLINK_ReadReg(R5)  returns 0x0800BAE4 (0000ms, 0461ms total)
T0888 001:719 JLINK_ReadReg(R6)  returns 0x00000000 (0000ms, 0461ms total)
T0888 001:719 JLINK_ReadReg(R7)  returns 0x00000000 (0000ms, 0461ms total)
T0888 001:719 JLINK_ReadReg(R8)  returns 0x00000000 (0000ms, 0461ms total)
T0888 001:719 JLINK_ReadReg(R9)  returns 0x00000000 (0000ms, 0461ms total)
T0888 001:719 JLINK_ReadReg(R10)  returns 0x00000000 (0000ms, 0461ms total)
T0888 001:719 JLINK_ReadReg(R11)  returns 0x00000000 (0000ms, 0461ms total)
T0888 001:719 JLINK_ReadReg(R12)  returns 0x00000000 (0000ms, 0461ms total)
T0888 001:719 JLINK_ReadReg(R13 (SP))  returns 0x2000EC68 (0000ms, 0461ms total)
T0888 001:719 JLINK_ReadReg(R14)  returns 0x080008F5 (0000ms, 0461ms total)
T0888 001:719 JLINK_ReadReg(R15 (PC))  returns 0x08007164 (0000ms, 0461ms total)
T0888 001:719 JLINK_ReadReg(XPSR)  returns 0x61000000 (0000ms, 0461ms total)
T0888 001:719 JLINK_ReadReg(MSP)  returns 0x2000EC68 (0000ms, 0461ms total)
T0888 001:719 JLINK_ReadReg(PSP)  returns 0x00000000 (0000ms, 0461ms total)
T0888 001:719 JLINK_ReadReg(CFBP)  returns 0x00000000 (0000ms, 0461ms total)
T0888 001:719 JLINK_ReadReg(FPSCR)  returns 0x00000000 (0004ms, 0465ms total)
T0888 001:723 JLINK_ReadReg(FPS0)  returns 0x00000000 (0000ms, 0465ms total)
T0888 001:723 JLINK_ReadReg(FPS1)  returns 0x00000000 (0000ms, 0465ms total)
T0888 001:723 JLINK_ReadReg(FPS2)  returns 0x00000000 (0000ms, 0465ms total)
T0888 001:723 JLINK_ReadReg(FPS3)  returns 0x00000000 (0000ms, 0465ms total)
T0888 001:723 JLINK_ReadReg(FPS4)  returns 0x00000000 (0000ms, 0465ms total)
T0888 001:723 JLINK_ReadReg(FPS5)  returns 0x00000000 (0000ms, 0465ms total)
T0888 001:723 JLINK_ReadReg(FPS6)  returns 0x00000000 (0000ms, 0465ms total)
T0888 001:723 JLINK_ReadReg(FPS7)  returns 0x00000000 (0000ms, 0465ms total)
T0888 001:723 JLINK_ReadReg(FPS8)  returns 0x00000000 (0000ms, 0465ms total)
T0888 001:723 JLINK_ReadReg(FPS9)  returns 0x00000000 (0000ms, 0465ms total)
T0888 001:723 JLINK_ReadReg(FPS10)  returns 0x00000000 (0000ms, 0465ms total)
T0888 001:723 JLINK_ReadReg(FPS11)  returns 0x00000000 (0000ms, 0465ms total)
T0888 001:723 JLINK_ReadReg(FPS12)  returns 0x00000000 (0000ms, 0465ms total)
T0888 001:723 JLINK_ReadReg(FPS13)  returns 0x00000000 (0000ms, 0465ms total)
T0888 001:723 JLINK_ReadReg(FPS14)  returns 0x00000000 (0000ms, 0465ms total)
T0888 001:723 JLINK_ReadReg(FPS15)  returns 0x00000000 (0000ms, 0465ms total)
T0888 001:723 JLINK_ReadReg(FPS16)  returns 0x00000000 (0000ms, 0465ms total)
T0888 001:723 JLINK_ReadReg(FPS17)  returns 0x00000000 (0000ms, 0465ms total)
T0888 001:723 JLINK_ReadReg(FPS18)  returns 0x00000000 (0000ms, 0465ms total)
T0888 001:723 JLINK_ReadReg(FPS19)  returns 0x00000000 (0000ms, 0465ms total)
T0888 001:723 JLINK_ReadReg(FPS20)  returns 0x00000000 (0000ms, 0465ms total)
T0888 001:723 JLINK_ReadReg(FPS21)  returns 0x00000000 (0000ms, 0465ms total)
T0888 001:723 JLINK_ReadReg(FPS22)  returns 0x00000000 (0000ms, 0465ms total)
T0888 001:723 JLINK_ReadReg(FPS23)  returns 0x00000000 (0000ms, 0465ms total)
T0888 001:723 JLINK_ReadReg(FPS24)  returns 0x00000000 (0000ms, 0465ms total)
T0888 001:723 JLINK_ReadReg(FPS25)  returns 0x00000000 (0000ms, 0465ms total)
T0888 001:723 JLINK_ReadReg(FPS26)  returns 0x00000000 (0000ms, 0465ms total)
T0888 001:723 JLINK_ReadReg(FPS27)  returns 0x00000000 (0000ms, 0465ms total)
T0888 001:724 JLINK_ReadReg(FPS28)  returns 0x00000000 (0000ms, 0465ms total)
T0888 001:724 JLINK_ReadReg(FPS29)  returns 0x00000000 (0000ms, 0465ms total)
T0888 001:724 JLINK_ReadReg(FPS30)  returns 0x00000000 (0000ms, 0465ms total)
T0888 001:724 JLINK_ReadReg(FPS31)  returns 0x00000000 (0000ms, 0465ms total)
T0868 001:726 JLINK_ReadMem (0x20000138, 0x0008 Bytes, ...) -- CPU_ReadMem(64 bytes @ 0x20000100) -- Updating C cache (64 bytes @ 0x20000100) -- Read from C cache (8 bytes @ 0x20000138) - Data: 00 00 00 00 00 00 00 00  returns 0x00 (0001ms, 0466ms total)
T0868 001:727 JLINK_ReadMem (0x20000204, 0x0004 Bytes, ...) -- CPU_ReadMem(64 bytes @ 0x20000200) -- Updating C cache (64 bytes @ 0x20000200) -- Read from C cache (4 bytes @ 0x20000204) - Data: 00 00 00 00  returns 0x00 (0002ms, 0468ms total)
T0868 001:729 JLINK_ReadMem (0x20000068, 0x0008 Bytes, ...) -- CPU_ReadMem(64 bytes @ 0x20000040) -- Updating C cache (64 bytes @ 0x20000040) -- Read from C cache (8 bytes @ 0x20000068) - Data: 00 00 00 00 00 00 00 00  returns 0x00 (0001ms, 0469ms total)
T0868 001:730 JLINK_ReadMem (0x20000078, 0x0004 Bytes, ...) -- Read from C cache (4 bytes @ 0x20000078) - Data: 00 00 00 00  returns 0x00 (0000ms, 0469ms total)
T0868 001:730 JLINK_ReadMem (0x2000015E, 0x0001 Bytes, ...) -- CPU_ReadMem(64 bytes @ 0x20000140) -- Updating C cache (64 bytes @ 0x20000140) -- Read from C cache (1 bytes @ 0x2000015E) - Data: 00  returns 0x00 (0001ms, 0470ms total)
T0868 001:731 JLINK_ReadMem (0x20000100, 0x0004 Bytes, ...) -- Read from C cache (4 bytes @ 0x20000100) - Data: 00 00 00 00  returns 0x00 (0000ms, 0470ms total)
T0868 001:732 JLINK_ReadMem (0x20000108, 0x0004 Bytes, ...) -- Read from C cache (4 bytes @ 0x20000108) - Data: 00 00 00 00  returns 0x00 (0000ms, 0470ms total)
T0868 001:732 JLINK_ReadMem (0x20000110, 0x0004 Bytes, ...) -- Read from C cache (4 bytes @ 0x20000110) - Data: 00 00 00 00  returns 0x00 (0000ms, 0470ms total)
T0868 001:732 JLINK_ReadMem (0x20000104, 0x0004 Bytes, ...) -- Read from C cache (4 bytes @ 0x20000104) - Data: 00 00 00 00  returns 0x00 (0000ms, 0470ms total)
T0868 001:732 JLINK_ReadMem (0x2000010C, 0x0004 Bytes, ...) -- Read from C cache (4 bytes @ 0x2000010C) - Data: 00 00 00 00  returns 0x00 (0000ms, 0470ms total)
T0868 001:732 JLINK_ReadMem (0x20000114, 0x0004 Bytes, ...) -- Read from C cache (4 bytes @ 0x20000114) - Data: 00 00 00 00  returns 0x00 (0000ms, 0470ms total)
T0868 001:734 JLINK_ReadMem (0x200000F8, 0x0004 Bytes, ...) -- CPU_ReadMem(64 bytes @ 0x200000C0) -- Updating C cache (64 bytes @ 0x200000C0) -- Read from C cache (4 bytes @ 0x200000F8) - Data: 00 00 00 00  returns 0x00 (0001ms, 0471ms total)
T0868 001:737 JLINK_ReadMem (0x40007400, 0x0004 Bytes, ...) -- CPU_ReadMem(4 bytes @ 0x40007400) - Data: 00 00 00 00  returns 0x00 (0000ms, 0471ms total)
T0868 001:737 JLINK_ReadMem (0x40007408, 0x0044 Bytes, ...) -- CPU_ReadMem(68 bytes @ 0x40007408) - Data: 00 00 00 00 00 00 00 00 00 00 00 00 00 00 00 00 ...  returns 0x00 (0001ms, 0472ms total)
T0868 001:738 JLINK_ReadMem (0x4000744C, 0x0004 Bytes, ...) -- CPU_ReadMem(4 bytes @ 0x4000744C) - Data: 01 00 01 00  returns 0x00 (0001ms, 0473ms total)
T0868 001:739 JLINK_ReadMem (0x40022000, 0x0004 Bytes, ...) -- CPU_ReadMem(4 bytes @ 0x40022000) - Data: 00 06 00 00  returns 0x00 (0001ms, 0474ms total)
T0868 001:740 JLINK_ReadMem (0x40022010, 0x0008 Bytes, ...) -- CPU_ReadMem(8 bytes @ 0x40022010) - Data: 00 00 00 00 00 00 00 C0  returns 0x00 (0000ms, 0474ms total)
T0868 001:740 JLINK_ReadMem (0x40022018, 0x0004 Bytes, ...) -- CPU_ReadMem(4 bytes @ 0x40022018) - Data: 00 00 00 00  returns 0x00 (0001ms, 0475ms total)
T0868 001:741 JLINK_ReadMem (0x40022020, 0x0010 Bytes, ...) -- CPU_ReadMem(16 bytes @ 0x40022020) - Data: AA F8 FF FF FF FF FF FF 00 00 FF FF FF FF 00 FF  returns 0x00 (0001ms, 0476ms total)
T0868 001:742 JLINK_ReadMem (0x40022030, 0x0004 Bytes, ...) -- CPU_ReadMem(4 bytes @ 0x40022030) - Data: FF FF 00 FF  returns 0x00 (0000ms, 0476ms total)
T0868 001:742 JLINK_ReadMem (0x40022044, 0x000C Bytes, ...) -- CPU_ReadMem(12 bytes @ 0x40022044) - Data: FF FF FF FF FF FF FF FF FF FF 00 FF  returns 0x00 (0001ms, 0477ms total)
T0868 001:743 JLINK_ReadMem (0x40022050, 0x0004 Bytes, ...) -- CPU_ReadMem(4 bytes @ 0x40022050) - Data: FF FF 00 FF  returns 0x00 (0000ms, 0477ms total)
T0868 001:744 JLINK_ReadMem (0x08007064, 0x003C Bytes, ...) -- CPU_ReadMem(128 bytes @ 0x08007040) -- Updating C cache (128 bytes @ 0x08007040) -- Read from C cache (60 bytes @ 0x08007064) - Data: F0 D1 C5 ED 00 0A 1E 60 F0 BD 00 00 10 B5 13 46 ...  returns 0x00 (0001ms, 0478ms total)
T0868 001:745 JLINK_ReadMem (0x080070A0, 0x003C Bytes, ...) -- CPU_ReadMem(64 bytes @ 0x080070C0) -- Updating C cache (64 bytes @ 0x080070C0) -- Read from C cache (60 bytes @ 0x080070A0) - Data: 00 EE 00 1A F0 EE 41 0A B0 EC 01 1A B0 EE 41 0A ...  returns 0x00 (0001ms, 0479ms total)
T0868 001:746 JLINK_ReadMem (0x080070DC, 0x003C Bytes, ...) -- CPU_ReadMem(64 bytes @ 0x08007100) -- Updating C cache (64 bytes @ 0x08007100) -- Read from C cache (60 bytes @ 0x080070DC) - Data: B0 EC 01 1A B0 EE 41 0A B0 EE 60 1A 00 EE 00 1A ...  returns 0x00 (0001ms, 0480ms total)
T0868 001:747 JLINK_ReadMem (0x08007118, 0x003C Bytes, ...) -- CPU_ReadMem(64 bytes @ 0x08007140) -- Updating C cache (64 bytes @ 0x08007140) -- Read from C cache (60 bytes @ 0x08007118) - Data: 03 1A C3 ED 00 1A 00 BF 10 BD 00 00 00 00 00 00 ...  returns 0x00 (0001ms, 0481ms total)
T0868 001:748 JLINK_ReadMem (0x08007154, 0x003C Bytes, ...) -- CPU_ReadMem(64 bytes @ 0x08007180) -- Updating C cache (64 bytes @ 0x08007180) -- Read from C cache (60 bytes @ 0x08007154) - Data: D8 8F 00 08 01 48 00 68 40 6A 70 47 A8 E4 00 20 ...  returns 0x00 (0001ms, 0482ms total)
T0888 002:149 JLINK_Go() -- CPU_ReadMem(4 bytes @ 0xE0001000) -- CPU_WriteMem(4 bytes @ 0xE0002008) (0002ms, 0484ms total)
T0888 002:251 JLINK_IsHalted()  returns FALSE (0000ms, 0484ms total)
T0888 002:351 JLINK_IsHalted()  returns FALSE (0000ms, 0484ms total)
T0888 002:451 JLINK_IsHalted()  returns FALSE (0000ms, 0484ms total)
T0888 002:551 JLINK_IsHalted()  returns FALSE (0000ms, 0484ms total)
T0888 002:651 JLINK_ReadMemU32(0xE0001004, 0x0001 Items, ...) -- CPU_ReadMem(4 bytes @ 0xE0001004) - Data: AD A4 64 02  returns 0x01 (0000ms, 0484ms total)
T0868 002:653 JLINK_ReadMem (0x20000138, 0x0008 Bytes, ...) -- CPU_ReadMem(8 bytes @ 0x20000138) - Data: 00 00 00 00 00 00 00 00  returns 0x00 (0001ms, 0485ms total)
T0868 002:654 JLINK_ReadMem (0x20000204, 0x0004 Bytes, ...) -- CPU_ReadMem(4 bytes @ 0x20000204) - Data: 00 00 00 00  returns 0x00 (0001ms, 0486ms total)
T0868 002:655 JLINK_ReadMem (0x20000068, 0x0008 Bytes, ...) -- CPU_ReadMem(8 bytes @ 0x20000068) - Data: 64 00 00 00 00 00 00 00  returns 0x00 (0000ms, 0486ms total)
T0868 002:656 JLINK_ReadMem (0x20000078, 0x0004 Bytes, ...) -- CPU_ReadMem(4 bytes @ 0x20000078) - Data: E0 21 00 00  returns 0x00 (0001ms, 0487ms total)
T0868 002:657 JLINK_ReadMem (0x2000015E, 0x0001 Bytes, ...) -- CPU_ReadMem(1 bytes @ 0x2000015E) - Data: 01  returns 0x00 (0001ms, 0488ms total)
T0868 002:658 JLINK_ReadMem (0x20000100, 0x0004 Bytes, ...) -- CPU_ReadMem(4 bytes @ 0x20000100) - Data: 00 00 00 00  returns 0x00 (0001ms, 0489ms total)
T0868 002:659 JLINK_ReadMem (0x20000108, 0x0004 Bytes, ...) -- CPU_ReadMem(4 bytes @ 0x20000108) - Data: 00 00 00 00  returns 0x00 (0000ms, 0489ms total)
T0868 002:660 JLINK_ReadMem (0x20000110, 0x0004 Bytes, ...) -- CPU_ReadMem(4 bytes @ 0x20000110) - Data: 00 00 00 00  returns 0x00 (0000ms, 0489ms total)
T0868 002:660 JLINK_ReadMem (0x20000104, 0x0004 Bytes, ...) -- CPU_ReadMem(4 bytes @ 0x20000104) - Data: 00 00 00 00  returns 0x00 (0001ms, 0490ms total)
T0868 002:661 JLINK_ReadMem (0x2000010C, 0x0004 Bytes, ...) -- CPU_ReadMem(4 bytes @ 0x2000010C) - Data: 00 00 00 00  returns 0x00 (0001ms, 0491ms total)
T0868 002:662 JLINK_ReadMem (0x20000114, 0x0004 Bytes, ...) -- CPU_ReadMem(4 bytes @ 0x20000114) - Data: 00 00 00 00  returns 0x00 (0000ms, 0491ms total)
T0868 002:664 JLINK_ReadMem (0x200000F8, 0x0004 Bytes, ...) -- CPU_ReadMem(4 bytes @ 0x200000F8) - Data: 9A 09 19 40  returns 0x00 (0001ms, 0492ms total)
T0868 002:667 JLINK_ReadMem (0x40007400, 0x0004 Bytes, ...) -- CPU_ReadMem(4 bytes @ 0x40007400) - Data: 01 00 00 00  returns 0x00 (0000ms, 0492ms total)
T0868 002:667 JLINK_ReadMem (0x40007408, 0x0044 Bytes, ...) -- CPU_ReadMem(68 bytes @ 0x40007408) - Data: 00 00 00 00 00 00 00 00 00 00 00 00 00 00 00 00 ...  returns 0x00 (0001ms, 0493ms total)
T0868 002:668 JLINK_ReadMem (0x4000744C, 0x0004 Bytes, ...) -- CPU_ReadMem(4 bytes @ 0x4000744C) - Data: 01 00 01 00  returns 0x00 (0001ms, 0494ms total)
T0868 002:675 JLINK_ReadMem (0x40022000, 0x0004 Bytes, ...) -- CPU_ReadMem(4 bytes @ 0x40022000) - Data: 04 06 00 00  returns 0x00 (0000ms, 0494ms total)
T0868 002:675 JLINK_ReadMem (0x40022010, 0x0008 Bytes, ...) -- CPU_ReadMem(8 bytes @ 0x40022010) - Data: 00 00 00 00 00 00 00 C0  returns 0x00 (0001ms, 0495ms total)
T0868 002:676 JLINK_ReadMem (0x40022018, 0x0004 Bytes, ...) -- CPU_ReadMem(4 bytes @ 0x40022018) - Data: 00 00 00 00  returns 0x00 (0001ms, 0496ms total)
T0868 002:677 JLINK_ReadMem (0x40022020, 0x0010 Bytes, ...) -- CPU_ReadMem(16 bytes @ 0x40022020) - Data: AA F8 FF FF FF FF FF FF 00 00 FF FF FF FF 00 FF  returns 0x00 (0001ms, 0497ms total)
T0868 002:678 JLINK_ReadMem (0x40022030, 0x0004 Bytes, ...) -- CPU_ReadMem(4 bytes @ 0x40022030) - Data: FF FF 00 FF  returns 0x00 (0000ms, 0497ms total)
T0868 002:678 JLINK_ReadMem (0x40022044, 0x000C Bytes, ...) -- CPU_ReadMem(12 bytes @ 0x40022044) - Data: FF FF FF FF FF FF FF FF FF FF 00 FF  returns 0x00 (0001ms, 0498ms total)
T0868 002:679 JLINK_ReadMem (0x40022050, 0x0004 Bytes, ...) -- CPU_ReadMem(4 bytes @ 0x40022050) - Data: FF FF 00 FF  returns 0x00 (0001ms, 0499ms total)
T0888 002:680 JLINK_IsHalted()  returns FALSE (0001ms, 0500ms total)
T0888 002:781 JLINK_IsHalted()  returns FALSE (0000ms, 0499ms total)
T0888 002:881 JLINK_IsHalted()  returns FALSE (0000ms, 0499ms total)
T0888 002:981 JLINK_IsHalted()  returns FALSE (0000ms, 0499ms total)
T0888 003:081 JLINK_IsHalted()  returns FALSE (0000ms, 0499ms total)
T0888 003:181 JLINK_ReadMemU32(0xE0001004, 0x0001 Items, ...) - Data: AD A4 64 02  returns 0x01 (0000ms, 0499ms total)
T0868 003:182 JLINK_ReadMem (0x20000138, 0x0008 Bytes, ...) -- CPU_ReadMem(8 bytes @ 0x20000138) - Data: 94 02 00 00 00 00 00 00  returns 0x00 (0001ms, 0500ms total)
T0868 003:183 JLINK_ReadMem (0x20000204, 0x0004 Bytes, ...) -- CPU_ReadMem(4 bytes @ 0x20000204) - Data: 00 00 00 00  returns 0x00 (0001ms, 0501ms total)
T0868 003:184 JLINK_ReadMem (0x20000068, 0x0008 Bytes, ...) -- CPU_ReadMem(8 bytes @ 0x20000068) - Data: 3A 00 00 00 00 00 00 00  returns 0x00 (0000ms, 0501ms total)
T0868 003:185 JLINK_ReadMem (0x20000078, 0x0004 Bytes, ...) -- CPU_ReadMem(4 bytes @ 0x20000078) - Data: E0 21 00 00  returns 0x00 (0001ms, 0502ms total)
T0868 003:186 JLINK_ReadMem (0x2000015E, 0x0001 Bytes, ...) -- CPU_ReadMem(1 bytes @ 0x2000015E) - Data: 01  returns 0x00 (0001ms, 0503ms total)
T0868 003:187 JLINK_ReadMem (0x20000100, 0x0004 Bytes, ...) -- CPU_ReadMem(4 bytes @ 0x20000100) - Data: 5A 7C 8D 41  returns 0x00 (0000ms, 0503ms total)
T0868 003:188 JLINK_ReadMem (0x20000108, 0x0004 Bytes, ...) -- CPU_ReadMem(4 bytes @ 0x20000108) - Data: AB 15 5D 42  returns 0x00 (0000ms, 0503ms total)
T0868 003:188 JLINK_ReadMem (0x20000110, 0x0004 Bytes, ...) -- CPU_ReadMem(4 bytes @ 0x20000110) - Data: FC 41 C9 44  returns 0x00 (0001ms, 0504ms total)
T0868 003:189 JLINK_ReadMem (0x20000104, 0x0004 Bytes, ...) -- CPU_ReadMem(4 bytes @ 0x20000104) - Data: 00 00 00 00  returns 0x00 (0001ms, 0505ms total)
T0868 003:190 JLINK_ReadMem (0x2000010C, 0x0004 Bytes, ...) -- CPU_ReadMem(4 bytes @ 0x2000010C) - Data: 00 00 00 00  returns 0x00 (0000ms, 0505ms total)
T0868 003:191 JLINK_ReadMem (0x20000114, 0x0004 Bytes, ...) -- CPU_ReadMem(4 bytes @ 0x20000114) - Data: 00 00 00 00  returns 0x00 (0000ms, 0505ms total)
T0868 003:193 JLINK_ReadMem (0x200000F8, 0x0004 Bytes, ...) -- CPU_ReadMem(4 bytes @ 0x200000F8) - Data: 9A 09 19 40  returns 0x00 (0001ms, 0506ms total)
T0868 003:196 JLINK_ReadMem (0x40007400, 0x0004 Bytes, ...) -- CPU_ReadMem(4 bytes @ 0x40007400) - Data: 01 00 00 00  returns 0x00 (0000ms, 0506ms total)
T0868 003:196 JLINK_ReadMem (0x40007408, 0x0044 Bytes, ...) -- CPU_ReadMem(68 bytes @ 0x40007408) - Data: 00 00 00 00 00 00 00 00 00 00 00 00 00 00 00 00 ...  returns 0x00 (0001ms, 0507ms total)
T0868 003:197 JLINK_ReadMem (0x4000744C, 0x0004 Bytes, ...) -- CPU_ReadMem(4 bytes @ 0x4000744C) - Data: 01 00 01 00  returns 0x00 (0001ms, 0508ms total)
T0868 003:198 JLINK_ReadMem (0x40022000, 0x0004 Bytes, ...) -- CPU_ReadMem(4 bytes @ 0x40022000) - Data: 04 06 00 00  returns 0x00 (0001ms, 0509ms total)
T0868 003:199 JLINK_ReadMem (0x40022010, 0x0008 Bytes, ...) -- CPU_ReadMem(8 bytes @ 0x40022010) - Data: 00 00 00 00 00 00 00 C0  returns 0x00 (0001ms, 0510ms total)
T0868 003:200 JLINK_ReadMem (0x40022018, 0x0004 Bytes, ...) -- CPU_ReadMem(4 bytes @ 0x40022018) - Data: 00 00 00 00  returns 0x00 (0000ms, 0510ms total)
T0868 003:200 JLINK_ReadMem (0x40022020, 0x0010 Bytes, ...) -- CPU_ReadMem(16 bytes @ 0x40022020) - Data: AA F8 FF FF FF FF FF FF 00 00 FF FF FF FF 00 FF  returns 0x00 (0001ms, 0511ms total)
T0868 003:201 JLINK_ReadMem (0x40022030, 0x0004 Bytes, ...) -- CPU_ReadMem(4 bytes @ 0x40022030) - Data: FF FF 00 FF  returns 0x00 (0000ms, 0511ms total)
T0868 003:201 JLINK_ReadMem (0x40022044, 0x000C Bytes, ...) -- CPU_ReadMem(12 bytes @ 0x40022044) - Data: FF FF FF FF FF FF FF FF FF FF 00 FF  returns 0x00 (0001ms, 0512ms total)
T0868 003:202 JLINK_ReadMem (0x40022050, 0x0004 Bytes, ...) -- CPU_ReadMem(4 bytes @ 0x40022050) - Data: FF FF 00 FF  returns 0x00 (0001ms, 0513ms total)
T0888 003:203 JLINK_IsHalted()  returns FALSE (0001ms, 0514ms total)
T0888 003:304 JLINK_IsHalted()  returns FALSE (0000ms, 0513ms total)
T0888 003:404 JLINK_IsHalted()  returns FALSE (0000ms, 0513ms total)
T0888 003:504 JLINK_IsHalted()  returns FALSE (0000ms, 0513ms total)
T0888 003:604 JLINK_IsHalted()  returns FALSE (0000ms, 0513ms total)
T0888 003:704 JLINK_ReadMemU32(0xE0001004, 0x0001 Items, ...) - Data: AD A4 64 02  returns 0x01 (0000ms, 0513ms total)
T0868 003:705 JLINK_ReadMem (0x20000138, 0x0008 Bytes, ...) -- CPU_ReadMem(8 bytes @ 0x20000138) - Data: 94 02 00 00 00 00 00 00  returns 0x00 (0001ms, 0514ms total)
T0868 003:706 JLINK_ReadMem (0x20000204, 0x0004 Bytes, ...) -- CPU_ReadMem(4 bytes @ 0x20000204) - Data: 00 00 00 00  returns 0x00 (0001ms, 0515ms total)
T0868 003:707 JLINK_ReadMem (0x20000068, 0x0008 Bytes, ...) -- CPU_ReadMem(8 bytes @ 0x20000068) - Data: 3A 00 00 00 00 00 00 00  returns 0x00 (0000ms, 0515ms total)
T0868 003:708 JLINK_ReadMem (0x20000078, 0x0004 Bytes, ...) -- CPU_ReadMem(4 bytes @ 0x20000078) - Data: E0 21 00 00  returns 0x00 (0000ms, 0515ms total)
T0868 003:708 JLINK_ReadMem (0x2000015E, 0x0001 Bytes, ...) -- CPU_ReadMem(1 bytes @ 0x2000015E) - Data: 01  returns 0x00 (0001ms, 0516ms total)
T0868 003:709 JLINK_ReadMem (0x20000100, 0x0004 Bytes, ...) -- CPU_ReadMem(4 bytes @ 0x20000100) - Data: 5A 7C 8D 41  returns 0x00 (0000ms, 0516ms total)
T0868 003:709 JLINK_ReadMem (0x20000108, 0x0004 Bytes, ...) -- CPU_ReadMem(4 bytes @ 0x20000108) - Data: AB 15 5D 42  returns 0x00 (0001ms, 0517ms total)
T0868 003:710 JLINK_ReadMem (0x20000110, 0x0004 Bytes, ...) -- CPU_ReadMem(4 bytes @ 0x20000110) - Data: FC 41 C9 44  returns 0x00 (0001ms, 0518ms total)
T0868 003:711 JLINK_ReadMem (0x20000104, 0x0004 Bytes, ...) -- CPU_ReadMem(4 bytes @ 0x20000104) - Data: 00 00 00 00  returns 0x00 (0001ms, 0519ms total)
T0868 003:712 JLINK_ReadMem (0x2000010C, 0x0004 Bytes, ...) -- CPU_ReadMem(4 bytes @ 0x2000010C) - Data: 00 00 00 00  returns 0x00 (0001ms, 0520ms total)
T0868 003:713 JLINK_ReadMem (0x20000114, 0x0004 Bytes, ...) -- CPU_ReadMem(4 bytes @ 0x20000114) - Data: 00 00 00 00  returns 0x00 (0000ms, 0520ms total)
T0868 003:715 JLINK_ReadMem (0x200000F8, 0x0004 Bytes, ...) -- CPU_ReadMem(4 bytes @ 0x200000F8) - Data: 33 31 19 40  returns 0x00 (0001ms, 0521ms total)
T0868 003:718 JLINK_ReadMem (0x40007400, 0x0004 Bytes, ...) -- CPU_ReadMem(4 bytes @ 0x40007400) - Data: 01 00 00 00  returns 0x00 (0000ms, 0521ms total)
T0868 003:718 JLINK_ReadMem (0x40007408, 0x0044 Bytes, ...) -- CPU_ReadMem(68 bytes @ 0x40007408) - Data: 00 00 00 00 00 00 00 00 00 00 00 00 00 00 00 00 ...  returns 0x00 (0001ms, 0522ms total)
T0868 003:719 JLINK_ReadMem (0x4000744C, 0x0004 Bytes, ...) -- CPU_ReadMem(4 bytes @ 0x4000744C) - Data: 01 00 01 00  returns 0x00 (0001ms, 0523ms total)
T0868 003:720 JLINK_ReadMem (0x40022000, 0x0004 Bytes, ...) -- CPU_ReadMem(4 bytes @ 0x40022000) - Data: 04 06 00 00  returns 0x00 (0001ms, 0524ms total)
T0868 003:721 JLINK_ReadMem (0x40022010, 0x0008 Bytes, ...) -- CPU_ReadMem(8 bytes @ 0x40022010) - Data: 00 00 00 00 00 00 00 C0  returns 0x00 (0000ms, 0524ms total)
T0868 003:721 JLINK_ReadMem (0x40022018, 0x0004 Bytes, ...) -- CPU_ReadMem(4 bytes @ 0x40022018) - Data: 00 00 00 00  returns 0x00 (0001ms, 0525ms total)
T0868 003:722 JLINK_ReadMem (0x40022020, 0x0010 Bytes, ...) -- CPU_ReadMem(16 bytes @ 0x40022020) - Data: AA F8 FF FF FF FF FF FF 00 00 FF FF FF FF 00 FF  returns 0x00 (0001ms, 0526ms total)
T0868 003:723 JLINK_ReadMem (0x40022030, 0x0004 Bytes, ...) -- CPU_ReadMem(4 bytes @ 0x40022030) - Data: FF FF 00 FF  returns 0x00 (0000ms, 0526ms total)
T0868 003:723 JLINK_ReadMem (0x40022044, 0x000C Bytes, ...) -- CPU_ReadMem(12 bytes @ 0x40022044) - Data: FF FF FF FF FF FF FF FF FF FF 00 FF  returns 0x00 (0001ms, 0527ms total)
T0868 003:724 JLINK_ReadMem (0x40022050, 0x0004 Bytes, ...) -- CPU_ReadMem(4 bytes @ 0x40022050) - Data: FF FF 00 FF  returns 0x00 (0001ms, 0528ms total)
T0888 003:725 JLINK_IsHalted()  returns FALSE (0001ms, 0529ms total)
T0888 003:826 JLINK_IsHalted()  returns FALSE (0000ms, 0528ms total)
T0888 003:926 JLINK_IsHalted()  returns FALSE (0000ms, 0528ms total)
T0888 004:026 JLINK_IsHalted()  returns FALSE (0000ms, 0528ms total)
T0888 004:126 JLINK_IsHalted()  returns FALSE (0000ms, 0528ms total)
T0888 004:226 JLINK_ReadMemU32(0xE0001004, 0x0001 Items, ...) - Data: AD A4 64 02  returns 0x01 (0000ms, 0528ms total)
T0868 004:227 JLINK_ReadMem (0x20000138, 0x0008 Bytes, ...) -- CPU_ReadMem(8 bytes @ 0x20000138) - Data: E8 03 00 00 00 00 00 00  returns 0x00 (0001ms, 0529ms total)
T0868 004:228 JLINK_ReadMem (0x20000204, 0x0004 Bytes, ...) -- CPU_ReadMem(4 bytes @ 0x20000204) - Data: 33 33 11 42  returns 0x00 (0001ms, 0530ms total)
T0868 004:229 JLINK_ReadMem (0x20000068, 0x0008 Bytes, ...) -- CPU_ReadMem(8 bytes @ 0x20000068) - Data: 29 00 00 00 00 00 00 00  returns 0x00 (0001ms, 0531ms total)
T0868 004:230 JLINK_ReadMem (0x20000078, 0x0004 Bytes, ...) -- CPU_ReadMem(4 bytes @ 0x20000078) - Data: E0 21 00 00  returns 0x00 (0001ms, 0532ms total)
T0868 004:231 JLINK_ReadMem (0x2000015E, 0x0001 Bytes, ...) -- CPU_ReadMem(1 bytes @ 0x2000015E) - Data: 01  returns 0x00 (0001ms, 0533ms total)
T0868 004:232 JLINK_ReadMem (0x20000100, 0x0004 Bytes, ...) -- CPU_ReadMem(4 bytes @ 0x20000100) - Data: DE C3 7B 3C  returns 0x00 (0000ms, 0533ms total)
T0868 004:232 JLINK_ReadMem (0x20000108, 0x0004 Bytes, ...) -- CPU_ReadMem(4 bytes @ 0x20000108) - Data: D7 92 6D 42  returns 0x00 (0001ms, 0534ms total)
T0868 004:233 JLINK_ReadMem (0x20000110, 0x0004 Bytes, ...) -- CPU_ReadMem(4 bytes @ 0x20000110) - Data: F9 19 74 44  returns 0x00 (0001ms, 0535ms total)
T0868 004:234 JLINK_ReadMem (0x20000104, 0x0004 Bytes, ...) -- CPU_ReadMem(4 bytes @ 0x20000104) - Data: 00 00 00 00  returns 0x00 (0000ms, 0535ms total)
T0868 004:234 JLINK_ReadMem (0x2000010C, 0x0004 Bytes, ...) -- CPU_ReadMem(4 bytes @ 0x2000010C) - Data: 00 00 00 00  returns 0x00 (0001ms, 0536ms total)
T0868 004:235 JLINK_ReadMem (0x20000114, 0x0004 Bytes, ...) -- CPU_ReadMem(4 bytes @ 0x20000114) - Data: 00 00 00 00  returns 0x00 (0001ms, 0537ms total)
T0868 004:238 JLINK_ReadMem (0x200000F8, 0x0004 Bytes, ...) -- CPU_ReadMem(4 bytes @ 0x200000F8) - Data: 9A 09 19 40  returns 0x00 (0000ms, 0537ms total)
T0868 004:240 JLINK_ReadMem (0x40007400, 0x0004 Bytes, ...) -- CPU_ReadMem(4 bytes @ 0x40007400) - Data: 01 00 00 00  returns 0x00 (0001ms, 0538ms total)
T0868 004:241 JLINK_ReadMem (0x40007408, 0x0044 Bytes, ...) -- CPU_ReadMem(68 bytes @ 0x40007408) - Data: 00 00 00 00 00 00 00 00 00 00 00 00 00 00 00 00 ...  returns 0x00 (0001ms, 0539ms total)
T0868 004:242 JLINK_ReadMem (0x4000744C, 0x0004 Bytes, ...) -- CPU_ReadMem(4 bytes @ 0x4000744C) - Data: 01 00 01 00  returns 0x00 (0000ms, 0539ms total)
T0868 004:243 JLINK_ReadMem (0x40022000, 0x0004 Bytes, ...) -- CPU_ReadMem(4 bytes @ 0x40022000) - Data: 04 06 00 00  returns 0x00 (0000ms, 0539ms total)
T0868 004:243 JLINK_ReadMem (0x40022010, 0x0008 Bytes, ...) -- CPU_ReadMem(8 bytes @ 0x40022010) - Data: 00 00 00 00 00 00 00 C0  returns 0x00 (0001ms, 0540ms total)
T0868 004:244 JLINK_ReadMem (0x40022018, 0x0004 Bytes, ...) -- CPU_ReadMem(4 bytes @ 0x40022018) - Data: 00 00 00 00  returns 0x00 (0001ms, 0541ms total)
T0868 004:245 JLINK_ReadMem (0x40022020, 0x0010 Bytes, ...) -- CPU_ReadMem(16 bytes @ 0x40022020) - Data: AA F8 FF FF FF FF FF FF 00 00 FF FF FF FF 00 FF  returns 0x00 (0001ms, 0542ms total)
T0868 004:246 JLINK_ReadMem (0x40022030, 0x0004 Bytes, ...) -- CPU_ReadMem(4 bytes @ 0x40022030) - Data: FF FF 00 FF  returns 0x00 (0000ms, 0542ms total)
T0868 004:246 JLINK_ReadMem (0x40022044, 0x000C Bytes, ...) -- CPU_ReadMem(12 bytes @ 0x40022044) - Data: FF FF FF FF FF FF FF FF FF FF 00 FF  returns 0x00 (0001ms, 0543ms total)
T0868 004:247 JLINK_ReadMem (0x40022050, 0x0004 Bytes, ...) -- CPU_ReadMem(4 bytes @ 0x40022050) - Data: FF FF 00 FF  returns 0x00 (0000ms, 0543ms total)
T0888 004:248 JLINK_IsHalted()  returns FALSE (0001ms, 0544ms total)
T0888 004:349 JLINK_IsHalted()  returns FALSE (0000ms, 0543ms total)
T0888 004:449 JLINK_IsHalted()  returns FALSE (0000ms, 0543ms total)
T0888 004:549 JLINK_IsHalted()  returns FALSE (0000ms, 0543ms total)
T0888 004:649 JLINK_IsHalted()  returns FALSE (0000ms, 0543ms total)
T0888 004:749 JLINK_ReadMemU32(0xE0001004, 0x0001 Items, ...) - Data: AD A4 64 02  returns 0x01 (0000ms, 0543ms total)
T0868 004:750 JLINK_ReadMem (0x20000138, 0x0008 Bytes, ...) -- CPU_ReadMem(8 bytes @ 0x20000138) - Data: E8 03 00 00 00 00 00 00  returns 0x00 (0001ms, 0544ms total)
T0868 004:751 JLINK_ReadMem (0x20000204, 0x0004 Bytes, ...) -- CPU_ReadMem(4 bytes @ 0x20000204) - Data: 33 33 11 42  returns 0x00 (0001ms, 0545ms total)
T0868 004:752 JLINK_ReadMem (0x20000068, 0x0008 Bytes, ...) -- CPU_ReadMem(8 bytes @ 0x20000068) - Data: 29 00 00 00 00 00 00 00  returns 0x00 (0001ms, 0546ms total)
T0868 004:753 JLINK_ReadMem (0x20000078, 0x0004 Bytes, ...) -- CPU_ReadMem(4 bytes @ 0x20000078) - Data: E0 21 00 00  returns 0x00 (0001ms, 0547ms total)
T0868 004:754 JLINK_ReadMem (0x2000015E, 0x0001 Bytes, ...) -- CPU_ReadMem(1 bytes @ 0x2000015E) - Data: 01  returns 0x00 (0001ms, 0548ms total)
T0868 004:755 JLINK_ReadMem (0x20000100, 0x0004 Bytes, ...) -- CPU_ReadMem(4 bytes @ 0x20000100) - Data: DE C3 7B 3C  returns 0x00 (0000ms, 0548ms total)
T0868 004:755 JLINK_ReadMem (0x20000108, 0x0004 Bytes, ...) -- CPU_ReadMem(4 bytes @ 0x20000108) - Data: D7 92 6D 42  returns 0x00 (0001ms, 0549ms total)
T0868 004:756 JLINK_ReadMem (0x20000110, 0x0004 Bytes, ...) -- CPU_ReadMem(4 bytes @ 0x20000110) - Data: F9 19 74 44  returns 0x00 (0001ms, 0550ms total)
T0868 004:757 JLINK_ReadMem (0x20000104, 0x0004 Bytes, ...) -- CPU_ReadMem(4 bytes @ 0x20000104) - Data: 00 00 00 00  returns 0x00 (0001ms, 0551ms total)
T0868 004:758 JLINK_ReadMem (0x2000010C, 0x0004 Bytes, ...) -- CPU_ReadMem(4 bytes @ 0x2000010C) - Data: 00 00 00 00  returns 0x00 (0000ms, 0551ms total)
T0868 004:758 JLINK_ReadMem (0x20000114, 0x0004 Bytes, ...) -- CPU_ReadMem(4 bytes @ 0x20000114) - Data: 00 00 00 00  returns 0x00 (0001ms, 0552ms total)
T0868 004:761 JLINK_ReadMem (0x200000F8, 0x0004 Bytes, ...) -- CPU_ReadMem(4 bytes @ 0x200000F8) - Data: 00 24 19 40  returns 0x00 (0001ms, 0553ms total)
T0868 004:764 JLINK_ReadMem (0x40007400, 0x0004 Bytes, ...) -- CPU_ReadMem(4 bytes @ 0x40007400) - Data: 01 00 00 00  returns 0x00 (0000ms, 0553ms total)
T0868 004:764 JLINK_ReadMem (0x40007408, 0x0044 Bytes, ...) -- CPU_ReadMem(68 bytes @ 0x40007408) - Data: 00 00 00 00 00 00 00 00 00 00 00 00 00 00 00 00 ...  returns 0x00 (0001ms, 0554ms total)
T0868 004:765 JLINK_ReadMem (0x4000744C, 0x0004 Bytes, ...) -- CPU_ReadMem(4 bytes @ 0x4000744C) - Data: 01 00 01 00  returns 0x00 (0001ms, 0555ms total)
T0868 004:766 JLINK_ReadMem (0x40022000, 0x0004 Bytes, ...) -- CPU_ReadMem(4 bytes @ 0x40022000) - Data: 04 06 00 00  returns 0x00 (0001ms, 0556ms total)
T0868 004:767 JLINK_ReadMem (0x40022010, 0x0008 Bytes, ...) -- CPU_ReadMem(8 bytes @ 0x40022010) - Data: 00 00 00 00 00 00 00 C0  returns 0x00 (0000ms, 0556ms total)
T0868 004:768 JLINK_ReadMem (0x40022018, 0x0004 Bytes, ...) -- CPU_ReadMem(4 bytes @ 0x40022018) - Data: 00 00 00 00  returns 0x00 (0000ms, 0557ms total)
T0868 004:768 JLINK_ReadMem (0x40022020, 0x0010 Bytes, ...) -- CPU_ReadMem(16 bytes @ 0x40022020) - Data: AA F8 FF FF FF FF FF FF 00 00 FF FF FF FF 00 FF  returns 0x00 (0001ms, 0558ms total)
T0868 004:769 JLINK_ReadMem (0x40022030, 0x0004 Bytes, ...) -- CPU_ReadMem(4 bytes @ 0x40022030) - Data: FF FF 00 FF  returns 0x00 (0000ms, 0558ms total)
T0868 004:769 JLINK_ReadMem (0x40022044, 0x000C Bytes, ...) -- CPU_ReadMem(12 bytes @ 0x40022044) - Data: FF FF FF FF FF FF FF FF FF FF 00 FF  returns 0x00 (0001ms, 0559ms total)
T0868 004:770 JLINK_ReadMem (0x40022050, 0x0004 Bytes, ...) -- CPU_ReadMem(4 bytes @ 0x40022050) - Data: FF FF 00 FF  returns 0x00 (0001ms, 0560ms total)
T0888 004:771 JLINK_IsHalted()  returns FALSE (0001ms, 0561ms total)
T0888 004:872 JLINK_IsHalted()  returns FALSE (0000ms, 0560ms total)
T0888 004:972 JLINK_IsHalted()  returns FALSE (0000ms, 0560ms total)
T0888 005:072 JLINK_IsHalted()  returns FALSE (0000ms, 0560ms total)
T0888 005:172 JLINK_IsHalted()  returns FALSE (0000ms, 0560ms total)
T0888 005:272 JLINK_ReadMemU32(0xE0001004, 0x0001 Items, ...) - Data: AD A4 64 02  returns 0x01 (0000ms, 0560ms total)
T0868 005:273 JLINK_ReadMem (0x20000138, 0x0008 Bytes, ...) -- CPU_ReadMem(8 bytes @ 0x20000138) - Data: E9 03 00 00 00 00 00 00  returns 0x00 (0001ms, 0561ms total)
T0868 005:274 JLINK_ReadMem (0x20000204, 0x0004 Bytes, ...) -- CPU_ReadMem(4 bytes @ 0x20000204) - Data: 33 33 11 42  returns 0x00 (0001ms, 0562ms total)
